
T0E08 000:295 SEGGER J-Link V4.91b (beta) Log File (0001ms, 0274ms total)
T0E08 000:295 DLL Compiled: Sep 15 2014 09:17:56 (0001ms, 0274ms total)
T0E08 000:295 Logging started @ 2015-02-11 20:48 (0001ms, 0274ms total)
T0E08 000:296 JLINK_SetWarnOutHandler(...) (0000ms, 0274ms total)
T0E08 000:296 JLINK_OpenEx(...)
Firmware: J-Link OpenSDA 2 compiled Nov 28 2014 10:34:59
Hardware: V1.00
S/N: 621000000  returns O.K. (0268ms, 0542ms total)
T0E08 000:564 JLINK_SetErrorOutHandler(...) (0000ms, 0542ms total)
T0E08 000:564 JLINK_ExecCommand("ProjectFile = "C:\Users\PatLas\Documents\GitHub\EtherComm\demos\lwip_tcpecho_demo\tcpecho_bm\uv4\frdmk64f120m\JLinkSettings.ini"", ...)  returns 0x00 (0001ms, 0543ms total)
T0E08 000:565 JLINK_ExecCommand("Device = MK64FN1M0xxx12", ...)Device "MK64FN1M0XXX12" selected (1024 KB flash, 192 KB RAM).  returns 0x00 (0002ms, 0545ms total)
T0E08 000:567 JLINK_ExecCommand("DisableConnectionTimeout", ...)  returns 0x01 (0000ms, 0545ms total)
T0E08 000:567 JLINK_GetHardwareVersion()  returns 0x2710 (0000ms, 0545ms total)
T0E08 000:567 JLINK_GetDLLVersion()  returns 49102 (0000ms, 0545ms total)
T0E08 000:567 JLINK_GetFirmwareString(...) (0000ms, 0545ms total)
T0E08 000:567 JLINK_GetDLLVersion()  returns 49102 (0001ms, 0546ms total)
T0E08 000:568 JLINK_GetCompileDateTime() (0000ms, 0546ms total)
T0E08 000:568 JLINK_GetFirmwareString(...) (0000ms, 0546ms total)
T0E08 000:568 JLINK_GetHardwareVersion()  returns 0x2710 (0000ms, 0546ms total)
T0E08 000:570 JLINK_TIF_Select(JLINKARM_TIF_SWD)  returns 0x00 (0005ms, 0551ms total)
T0E08 000:575 JLINK_SetSpeed(10000) (0001ms, 0552ms total)
T0E08 000:576 JLINK_GetId() >0x108 TIF>Found SWD-DP with ID 0x2BA01477 >0x0D TIF> >0x28 TIF> >0x0D TIF> >0x28 TIF> >0x0D TIF> >0x21 TIF> >0x0D TIF> >0x28 TIF> >0x0D TIF> >0x21 TIF> >0x0D TIF> >0x21 TIF> >0x0D TIF> >0x21 TIF> >0x0D TIF> >0x21 TIF> >0x0D TIF> >0x21 TIF> >0x0D TIF> >0x21 TIF> >0x0D TIF> >0x21 TIF> >0x0D TIF> >0x21 TIF> >0x0D TIF> >0x21 TIF> >0x0D TIF> >0x21 TIF> >0x0D TIF> >0x28 TIF> >0x0D TIF> >0x28 TIF> >0x0D TIF> >0x28 TIF> >0x0D TIF> >0x28 TIF> >0x0D TIF> >0x28 TIF> >0x0D TIF>
 >0x28 TIF> >0x0D TIF> >0x28 TIF> >0x0D TIF> >0x21 TIF> >0x0D TIF> >0x21 TIF> >0x0D TIF> >0x28 TIF> >0x108 TIF>Found SWD-DP with ID 0x2BA01477 >0x0D TIF> >0x21 TIF> >0x0D TIF> >0x28 TIF> >0x0D TIF> >0x28 TIF> >0x0D TIF> >0x21 TIF> >0x0D TIF> >0x28 TIF> >0x0D TIF> >0x21 TIF> >0x0D TIF> >0x21 TIF> >0x0D TIF> >0x21 TIF> >0x0D TIF> >0x21 TIF> >0x0D TIF> >0x28 TIF> >0x0D TIF> >0x28 TIF> >0x0D TIF> >0x21 TIF> >0x0D TIF> >0x28 TIF> >0x0D TIF> >0x28 TIF> >0x0D TIF> >0x28 TIF> >0x0D TIF> >0x21 TIF> >0x0D TIF>
 >0x21 TIF> >0x0D TIF> >0x28 TIF> >0x0D TIF> >0x21 TIF> >0x0D TIF> >0x21 TIF>Found Cortex-M4 r0p1, Little endian. -- CPU_WriteMem(4 bytes @ 0xE0002000) -- CPU_ReadMem(4 bytes @ 0xE000EDF0) -- CPU_ReadMem(4 bytes @ 0xE0002000)FPUnit: 6 code (BP) slots and 2 literal slots -- CPU_ReadMem(4 bytes @ 0xE000EDFC) -- CPU_ReadMem(4 bytes @ 0xE0001000) -- CPU_WriteMem(4 bytes @ 0xE0001000) -- CPU_ReadMem(4 bytes @ 0xE000ED88) -- CPU_WriteMem(4 bytes @ 0xE000ED88) -- CPU_ReadMem(4 bytes @ 0xE000ED88)
 -- CPU_WriteMem(4 bytes @ 0xE000ED88) -- CPU_ReadMem(4 bytes @ 0xE00FF010)TPIU fitted. -- CPU_ReadMem(4 bytes @ 0xE00FF014)ETM fitted. -- CPU_ReadMem(4 bytes @ 0xE00FF018) -- CPU_ReadMem(4 bytes @ 0xE0042FE0) -- CPU_ReadMem(4 bytes @ 0xE0042FE4)ETB present. -- CPU_ReadMem(4 bytes @ 0xE00FF01C) -- CPU_ReadMem(4 bytes @ 0xE0043FE0) -- CPU_ReadMem(4 bytes @ 0xE0043FE4)CSTF present. -- CPU_ReadMem(4 bytes @ 0xE00FF020) -- CPU_ReadMem(2 bytes @ 0x40052000) >0x0D TIF> >0x21 TIF>  returns 0x2BA01477
 (0125ms, 0677ms total)
T0E08 000:701 JLINK_GetDeviceFamily()  returns 14 (0000ms, 0677ms total)
T0E08 000:701 JLINK_ReadMem (0xE00FFFF0, 0x0010 Bytes, ...) -- CPU is running -- CPU_ReadMem(16 bytes @ 0xE00FFFF0) - Data: 0D 00 00 00 10 00 00 00 05 00 00 00 B1 00 00 00  returns 0x00 (0002ms, 0679ms total)
T0E08 000:703 JLINK_ReadMem (0xE00FFFD0, 0x0020 Bytes, ...) -- CPU is running -- CPU_ReadMem(32 bytes @ 0xE00FFFD0) - Data: 04 00 00 00 00 00 00 00 00 00 00 00 00 00 00 00 ...  returns 0x00 (0002ms, 0681ms total)
T0E08 000:705 JLINK_ReadMem (0xE00FF000, 0x0018 Bytes, ...) -- CPU is running -- CPU_ReadMem(24 bytes @ 0xE00FF000) - Data: 03 F0 F0 FF 03 20 F0 FF 03 30 F0 FF 03 10 F0 FF ...  returns 0x00 (0002ms, 0683ms total)
T0E08 000:707 JLINK_ReadMemU32(0xE000ED00, 0x0001 Items, ...) -- CPU is running -- CPU_ReadMem(4 bytes @ 0xE000ED00) - Data: 41 C2 0F 41  returns 0x01 (0001ms, 0684ms total)
T0E08 000:708 JLINK_ReadMemU32(0xE000EF40, 0x0001 Items, ...) -- CPU is running -- CPU_ReadMem(4 bytes @ 0xE000EF40) - Data: 21 00 11 10  returns 0x01 (0001ms, 0685ms total)
T0E08 000:709 JLINK_ReadMemU32(0xE000EF44, 0x0001 Items, ...) -- CPU is running -- CPU_ReadMem(4 bytes @ 0xE000EF44) - Data: 11 00 00 11  returns 0x01 (0001ms, 0686ms total)
T0E08 000:710 JLINK_SetResetType(JLINKARM_RESET_TYPE_NORMAL)  returns JLINKARM_RESET_TYPE_SOFT (0000ms, 0686ms total)
T0E08 000:710 JLINK_Reset() -- CPU is running -- CPU_WriteMem(4 bytes @ 0xE000EDF0) -- CPU is running -- CPU_WriteMem(4 bytes @ 0xE000EDFC) >0x35 TIF> -- CPU is running -- CPU_WriteMem(4 bytes @ 0xE000ED0C) -- CPU is running -- CPU_ReadMem(4 bytes @ 0xE000EDF0) -- CPU is running -- CPU_ReadMem(4 bytes @ 0xE000EDF0) -- CPU is running -- CPU_WriteMem(4 bytes @ 0xE000EDF0) -- CPU is running -- CPU_WriteMem(4 bytes @ 0xE000EDFC) -- CPU is running -- CPU_ReadMem(4 bytes @ 0xE000EDF0)
 -- CPU_ReadMem(8 bytes @ 0x20000000) -- CPU_WriteMem(8 bytes @ 0x20000000) -- CPU_WriteMem(8 bytes @ 0x20000000) -- CPU_WriteMem(4 bytes @ 0xE0002000) -- CPU_ReadMem(4 bytes @ 0xE000EDFC) -- CPU_ReadMem(4 bytes @ 0xE0001000) (0037ms, 0723ms total)
T0E08 000:747 JLINK_ReadReg(R15 (PC))  returns 0x000005EC (0000ms, 0723ms total)
T0E08 000:747 JLINK_ReadReg(XPSR)  returns 0x01000000 (0000ms, 0723ms total)
T0E08 000:747 JLINK_Halt()  returns 0x00 (0000ms, 0723ms total)
T0E08 000:747 JLINK_IsHalted()  returns TRUE (0000ms, 0723ms total)
T0E08 000:747 JLINK_ReadMemU32(0xE000EDF0, 0x0001 Items, ...) -- CPU_ReadMem(4 bytes @ 0xE000EDF0) - Data: 03 00 03 00  returns 0x01 (0001ms, 0724ms total)
T0E08 000:748 JLINK_WriteU32(0xE000EDF0, 0xA05F0003) -- CPU_WriteMem(4 bytes @ 0xE000EDF0)  returns 0x00 (0001ms, 0725ms total)
T0E08 000:749 JLINK_WriteU32(0xE000EDFC, 0x01000000) -- CPU_WriteMem(4 bytes @ 0xE000EDFC)  returns 0x00 (0001ms, 0726ms total)
T0E08 000:750 JLINK_GetHWStatus(...)  returns 0x00 (0001ms, 0727ms total)
T0E08 000:751 JLINK_GetNumBPUnits(Type = 0xFFFFFF00)  returns 0x06 (0000ms, 0727ms total)
T0E08 000:751 JLINK_GetNumBPUnits(Type = 0xF0)  returns 0x2000 (0000ms, 0727ms total)
T0E08 000:751 JLINK_GetNumWPUnits()  returns 0x04 (0000ms, 0727ms total)
T0E08 000:751 JLINK_GetSpeed()  returns 0x595 (0000ms, 0727ms total)
T0E08 000:751 JLINK_ReadMemU32(0xE000E004, 0x0001 Items, ...) -- CPU_ReadMem(4 bytes @ 0xE000E004) - Data: 02 00 00 00  returns 0x01 (0004ms, 0731ms total)
T0E08 000:755 JLINK_ReadMemU32(0xE000E004, 0x0001 Items, ...) -- CPU_ReadMem(4 bytes @ 0xE000E004) - Data: 02 00 00 00  returns 0x01 (0001ms, 0732ms total)
T0E08 000:756 JLINK_WriteMem(0xE0001000, 0x001C Bytes, ...) - Data: 01 00 00 00 00 00 00 00 00 00 00 00 00 00 00 00 ... -- CPU_WriteMem(28 bytes @ 0xE0001000)  returns 0x1C (0002ms, 0734ms total)
T0E08 000:758 JLINK_ReadMem (0xE0001000, 0x001C Bytes, ...) -- CPU_ReadMem(28 bytes @ 0xE0001000) - Data: 01 00 00 40 00 00 00 00 00 00 00 00 00 00 00 00 ...  returns 0x00 (0002ms, 0736ms total)
T0E08 000:760 JLINK_ReadReg(R15 (PC))  returns 0x000005EC (0000ms, 0736ms total)
T0E08 000:760 JLINK_ReadReg(XPSR)  returns 0x01000000 (0000ms, 0736ms total)
T0E08 000:948 JLINK_SetResetType(JLINKARM_RESET_TYPE_NORMAL)  returns JLINKARM_RESET_TYPE_SOFT (0000ms, 0736ms total)
T0E08 000:948 JLINK_Reset() -- CPU_WriteMem(4 bytes @ 0xE000EDF0) -- CPU_WriteMem(4 bytes @ 0xE000EDFC) >0x35 TIF> -- CPU_WriteMem(4 bytes @ 0xE000ED0C) -- CPU_ReadMem(4 bytes @ 0xE000EDF0) -- CPU_ReadMem(4 bytes @ 0xE000EDF0) -- CPU_WriteMem(4 bytes @ 0xE000EDF0) -- CPU_WriteMem(4 bytes @ 0xE000EDFC) -- CPU is running -- CPU_ReadMem(4 bytes @ 0xE000EDF0) -- CPU_ReadMem(8 bytes @ 0x20000000) -- CPU_WriteMem(8 bytes @ 0x20000000) -- CPU_WriteMem(8 bytes @ 0x20000000) -- CPU_WriteMem(4 bytes @ 0xE0002000)
 -- CPU_ReadMem(4 bytes @ 0xE000EDFC) -- CPU_ReadMem(4 bytes @ 0xE0001000) (0039ms, 0775ms total)
T0E08 000:987 JLINK_ReadReg(R15 (PC))  returns 0x000005EC (0000ms, 0775ms total)
T0E08 000:987 JLINK_ReadReg(XPSR)  returns 0x01000000 (0000ms, 0775ms total)
T0E08 000:988 JLINK_ReadMem (0x000004EC, 0x003C Bytes, ...) -- CPU_ReadMem(128 bytes @ 0x000004C0) -- Updating C cache (128 bytes @ 0x000004C0) -- Read from C cache (60 bytes @ 0x000004EC) - Data: 00 2F EA D1 20 46 BD E8 F0 87 2D E9 FC 41 05 46 ...  returns 0x00 (0003ms, 0778ms total)
T0E08 000:991 JLINK_ReadMem (0x00000528, 0x003C Bytes, ...) -- CPU_ReadMem(64 bytes @ 0x00000540) -- Updating C cache (64 bytes @ 0x00000540) -- Read from C cache (60 bytes @ 0x00000528) - Data: 09 1D 28 46 10 F0 80 FF 07 46 37 B1 0C 2F 04 D0 ...  returns 0x00 (0002ms, 0780ms total)
T0E08 000:993 JLINK_ReadMem (0x00000564, 0x003C Bytes, ...) -- CPU_ReadMem(64 bytes @ 0x00000580) -- Updating C cache (64 bytes @ 0x00000580) -- Read from C cache (60 bytes @ 0x00000564) - Data: 00 78 08 B9 00 20 10 BD 1B 48 00 78 10 28 05 D1 ...  returns 0x00 (0003ms, 0783ms total)
T0E08 000:996 JLINK_ReadMem (0x000005A0, 0x003C Bytes, ...) -- CPU_ReadMem(64 bytes @ 0x000005C0) -- Updating C cache (64 bytes @ 0x000005C0) -- Read from C cache (60 bytes @ 0x000005A0) - Data: 0E 49 91 F8 3C 00 4F F4 7A 73 01 22 0C 6C 69 46 ...  returns 0x00 (0002ms, 0785ms total)
T0E08 000:998 JLINK_ReadMem (0x000005DC, 0x003C Bytes, ...) -- CPU_ReadMem(64 bytes @ 0x00000600) -- Updating C cache (64 bytes @ 0x00000600) -- Read from C cache (60 bytes @ 0x000005DC) - Data: 44 01 00 20 9C 31 01 00 5D 04 00 00 AB 04 00 00 ...  returns 0x00 (0002ms, 0787ms total)
T0E08 001:133 JLINK_ReadMem (0x4004A000, 0x007C Bytes, ...) -- CPU_ReadMem(124 bytes @ 0x4004A000) - Data: AA AA AA AA AA AA AA AA AA AA AA AA AA AA AA AA ...  returns 0x01 (0006ms, 0793ms total)
T0E08 001:139 JLINK_ReadMem (0x4004A07C, 0x0004 Bytes, ...) -- CPU_ReadMem(4 bytes @ 0x4004A07C) - Data: AA AA AA AA  returns 0x01 (0002ms, 0795ms total)
T0E08 001:141 JLINK_ReadMem (0x4004A0A0, 0x0004 Bytes, ...) -- CPU_ReadMem(4 bytes @ 0x4004A0A0) - Data: AA AA AA AA  returns 0x01 (0002ms, 0797ms total)
T0E08 001:185 JLINK_ReadMem (0x4004D000, 0x007C Bytes, ...) -- CPU_ReadMem(124 bytes @ 0x4004D000) - Data: AA AA AA AA AA AA AA AA AA AA AA AA AA AA AA AA ...  returns 0x01 (0006ms, 0803ms total)
T0E08 001:191 JLINK_ReadMem (0x4004D07C, 0x0004 Bytes, ...) -- CPU_ReadMem(4 bytes @ 0x4004D07C) - Data: AA AA AA AA  returns 0x01 (0002ms, 0805ms total)
T0E08 001:193 JLINK_ReadMem (0x4004D0A0, 0x0004 Bytes, ...) -- CPU_ReadMem(4 bytes @ 0x4004D0A0) - Data: AA AA AA AA  returns 0x01 (0002ms, 0807ms total)
T0E08 001:231 JLINK_ReadMem (0x400FF040, 0x0004 Bytes, ...) -- CPU_ReadMem(4 bytes @ 0x400FF040) - Data: 00 00 00 00  returns 0x00 (0002ms, 0809ms total)
T0E08 001:233 JLINK_ReadMem (0x400FF050, 0x0004 Bytes, ...) -- CPU_ReadMem(4 bytes @ 0x400FF050) - Data: 00 00 00 00  returns 0x00 (0001ms, 0810ms total)
T0E08 001:234 JLINK_ReadMem (0x400FF054, 0x0004 Bytes, ...) -- CPU_ReadMem(4 bytes @ 0x400FF054) - Data: 00 00 00 00  returns 0x00 (0001ms, 0811ms total)
T0E08 001:266 JLINK_ReadMem (0x4006A000, 0x0001 Bytes, ...) -- CPU_ReadMem(1 bytes @ 0x4006A000) - Data: AA  returns 0x01 (0003ms, 0814ms total)
T0E08 001:269 JLINK_ReadMem (0x4006A001, 0x0001 Bytes, ...) -- CPU_ReadMem(1 bytes @ 0x4006A001) - Data: AA  returns 0x01 (0002ms, 0816ms total)
T0E08 001:271 JLINK_ReadMem (0x4006A002, 0x0001 Bytes, ...) -- CPU_ReadMem(1 bytes @ 0x4006A002) - Data: AA  returns 0x01 (0002ms, 0818ms total)
T0E08 001:273 JLINK_ReadMem (0x4006A003, 0x0001 Bytes, ...) -- CPU_ReadMem(1 bytes @ 0x4006A003) - Data: AA  returns 0x01 (0002ms, 0820ms total)
T0E08 001:275 JLINK_ReadMem (0x4006A004, 0x0001 Bytes, ...) -- CPU_ReadMem(1 bytes @ 0x4006A004) - Data: AA  returns 0x01 (0002ms, 0822ms total)
T0E08 001:277 JLINK_ReadMem (0x4006A005, 0x0001 Bytes, ...) -- CPU_ReadMem(1 bytes @ 0x4006A005) - Data: AA  returns 0x01 (0002ms, 0824ms total)
T0E08 001:279 JLINK_ReadMem (0x4006A006, 0x0001 Bytes, ...) -- CPU_ReadMem(1 bytes @ 0x4006A006) - Data: AA  returns 0x01 (0002ms, 0826ms total)
T0E08 001:281 JLINK_ReadMem (0x4006A007, 0x0001 Bytes, ...) -- CPU_ReadMem(1 bytes @ 0x4006A007) - Data: AA  returns 0x01 (0002ms, 0828ms total)
T0E08 001:283 JLINK_ReadMem (0x4006A008, 0x0001 Bytes, ...) -- CPU_ReadMem(1 bytes @ 0x4006A008) - Data: AA  returns 0x01 (0002ms, 0830ms total)
T0E08 001:285 JLINK_ReadMem (0x4006A009, 0x0001 Bytes, ...) -- CPU_ReadMem(1 bytes @ 0x4006A009) - Data: AA  returns 0x01 (0002ms, 0832ms total)
T0E08 001:287 JLINK_ReadMem (0x4006A00A, 0x0001 Bytes, ...) -- CPU_ReadMem(1 bytes @ 0x4006A00A) - Data: AA  returns 0x01 (0002ms, 0834ms total)
T0E08 001:289 JLINK_ReadMem (0x4006A00B, 0x0001 Bytes, ...) -- CPU_ReadMem(1 bytes @ 0x4006A00B) - Data: AA  returns 0x01 (0002ms, 0836ms total)
T0E08 001:291 JLINK_ReadMem (0x4006A00C, 0x0001 Bytes, ...) -- CPU_ReadMem(1 bytes @ 0x4006A00C) - Data: AA  returns 0x01 (0002ms, 0838ms total)
T0E08 001:293 JLINK_ReadMem (0x4006A00D, 0x0001 Bytes, ...) -- CPU_ReadMem(1 bytes @ 0x4006A00D) - Data: AA  returns 0x01 (0002ms, 0840ms total)
T0E08 001:295 JLINK_ReadMem (0x4006A00E, 0x0001 Bytes, ...) -- CPU_ReadMem(1 bytes @ 0x4006A00E) - Data: AA  returns 0x01 (0002ms, 0842ms total)
T0E08 001:297 JLINK_ReadMem (0x4006A010, 0x0001 Bytes, ...) -- CPU_ReadMem(1 bytes @ 0x4006A010) - Data: AA  returns 0x01 (0002ms, 0844ms total)
T0E08 001:299 JLINK_ReadMem (0x4006A011, 0x0001 Bytes, ...) -- CPU_ReadMem(1 bytes @ 0x4006A011) - Data: AA  returns 0x01 (0002ms, 0846ms total)
T0E08 001:301 JLINK_ReadMem (0x4006A012, 0x0001 Bytes, ...) -- CPU_ReadMem(1 bytes @ 0x4006A012) - Data: AA  returns 0x01 (0002ms, 0848ms total)
T0E08 001:303 JLINK_ReadMem (0x4006A013, 0x0001 Bytes, ...) -- CPU_ReadMem(1 bytes @ 0x4006A013) - Data: AA  returns 0x01 (0002ms, 0850ms total)
T0E08 001:305 JLINK_ReadMem (0x4006A014, 0x0001 Bytes, ...) -- CPU_ReadMem(1 bytes @ 0x4006A014) - Data: AA  returns 0x01 (0003ms, 0853ms total)
T0E08 001:308 JLINK_ReadMem (0x4006A015, 0x0001 Bytes, ...) -- CPU_ReadMem(1 bytes @ 0x4006A015) - Data: AA  returns 0x01 (0002ms, 0855ms total)
T0E08 001:310 JLINK_ReadMem (0x4006A016, 0x0001 Bytes, ...) -- CPU_ReadMem(1 bytes @ 0x4006A016) - Data: AA  returns 0x01 (0002ms, 0857ms total)
T0E08 001:312 JLINK_ReadMem (0x4006A018, 0x0001 Bytes, ...) -- CPU_ReadMem(1 bytes @ 0x4006A018) - Data: AA  returns 0x01 (0002ms, 0859ms total)
T0E08 001:314 JLINK_ReadMem (0x4006A019, 0x0001 Bytes, ...) -- CPU_ReadMem(1 bytes @ 0x4006A019) - Data: AA  returns 0x01 (0002ms, 0861ms total)
T0E08 001:316 JLINK_ReadMem (0x4006A01A, 0x0001 Bytes, ...) -- CPU_ReadMem(1 bytes @ 0x4006A01A) - Data: AA  returns 0x01 (0002ms, 0863ms total)
T0E08 001:318 JLINK_ReadMem (0x4006A01B, 0x0001 Bytes, ...) -- CPU_ReadMem(1 bytes @ 0x4006A01B) - Data: AA  returns 0x01 (0002ms, 0865ms total)
T0E08 001:320 JLINK_ReadMem (0x4006A01C, 0x0001 Bytes, ...) -- CPU_ReadMem(1 bytes @ 0x4006A01C) - Data: AA  returns 0x01 (0002ms, 0867ms total)
T0E08 001:322 JLINK_ReadMem (0x4006A01D, 0x0001 Bytes, ...) -- CPU_ReadMem(1 bytes @ 0x4006A01D) - Data: AA  returns 0x01 (0002ms, 0869ms total)
T0E08 001:324 JLINK_ReadMem (0x4006A01E, 0x0001 Bytes, ...) -- CPU_ReadMem(1 bytes @ 0x4006A01E) - Data: AA  returns 0x01 (0002ms, 0871ms total)
T0E08 001:326 JLINK_ReadMem (0x4006A01F, 0x0001 Bytes, ...) -- CPU_ReadMem(1 bytes @ 0x4006A01F) - Data: AA  returns 0x01 (0002ms, 0873ms total)
T1388 005:081 JLINK_SetBPEx(Addr = 0x0000AC72, Type = 0xFFFFFFF2)  returns 0x00000001 (0001ms, 0874ms total)
T1388 005:082 JLINK_SetBPEx(Addr = 0x0000A852, Type = 0xFFFFFFF2)  returns 0x00000002 (0000ms, 0874ms total)
T1388 005:082 JLINK_Go() -- CPU_WriteMem(4 bytes @ 0xE0002000) -- CPU_WriteMem(4 bytes @ 0xE0002000) -- CPU_WriteMem(4 bytes @ 0xE0002008) -- CPU_WriteMem(4 bytes @ 0xE000200C) -- CPU_WriteMem(4 bytes @ 0xE0002010) -- CPU_WriteMem(4 bytes @ 0xE0002014) -- CPU_WriteMem(4 bytes @ 0xE0002018) -- CPU_WriteMem(4 bytes @ 0xE000201C) -- CPU_WriteMem(4 bytes @ 0xE0001004) (0014ms, 0888ms total)
T1388 005:196 JLINK_IsHalted()  returns TRUE (0005ms, 0893ms total)
T1388 005:201 JLINK_Halt()  returns 0x00 (0000ms, 0888ms total)
T1388 005:201 JLINK_IsHalted()  returns TRUE (0000ms, 0888ms total)
T1388 005:201 JLINK_IsHalted()  returns TRUE (0001ms, 0889ms total)
T1388 005:202 JLINK_IsHalted()  returns TRUE (0000ms, 0888ms total)
T1388 005:202 JLINK_ReadReg(R15 (PC))  returns 0x0000AC72 (0000ms, 0888ms total)
T1388 005:202 JLINK_ReadReg(XPSR)  returns 0x61000000 (0000ms, 0888ms total)
T1388 005:202 JLINK_ClrBPEx(BPHandle = 0x00000001)  returns 0x00 (0000ms, 0888ms total)
T1388 005:202 JLINK_ClrBPEx(BPHandle = 0x00000002)  returns 0x00 (0000ms, 0888ms total)
T1388 005:202 JLINK_ReadMemU32(0xE000ED30, 0x0001 Items, ...) -- CPU_ReadMem(4 bytes @ 0xE000ED30) - Data: 03 00 00 00  returns 0x01 (0001ms, 0889ms total)
T1388 005:203 JLINK_ReadMemU32(0xE0001028, 0x0001 Items, ...) -- CPU_ReadMem(4 bytes @ 0xE0001028) - Data: 00 00 00 00  returns 0x01 (0001ms, 0890ms total)
T1388 005:204 JLINK_ReadMemU32(0xE0001038, 0x0001 Items, ...) -- CPU_ReadMem(4 bytes @ 0xE0001038) - Data: 00 02 00 00  returns 0x01 (0001ms, 0891ms total)
T1388 005:205 JLINK_ReadMemU32(0xE0001048, 0x0001 Items, ...) -- CPU_ReadMem(4 bytes @ 0xE0001048) - Data: 00 00 00 00  returns 0x01 (0001ms, 0892ms total)
T1388 005:206 JLINK_ReadMemU32(0xE0001058, 0x0001 Items, ...) -- CPU_ReadMem(4 bytes @ 0xE0001058) - Data: 00 00 00 00  returns 0x01 (0001ms, 0893ms total)
T1388 005:208 JLINK_ReadReg(R0)  returns 0x0000AC73 (0000ms, 0893ms total)
T1388 005:208 JLINK_ReadReg(R1)  returns 0x2000CC88 (0000ms, 0893ms total)
T1388 005:208 JLINK_ReadReg(R2)  returns 0x00000000 (0000ms, 0893ms total)
T1388 005:208 JLINK_ReadReg(R3)  returns 0x00012E55 (0000ms, 0893ms total)
T1388 005:208 JLINK_ReadReg(R4)  returns 0x000133F0 (0000ms, 0893ms total)
T1388 005:208 JLINK_ReadReg(R5)  returns 0x000133F0 (0000ms, 0893ms total)
T1388 005:208 JLINK_ReadReg(R6)  returns 0x00000000 (0000ms, 0893ms total)
T1388 005:208 JLINK_ReadReg(R7)  returns 0x00000000 (0000ms, 0893ms total)
T1388 005:208 JLINK_ReadReg(R8)  returns 0x00000000 (0000ms, 0893ms total)
T1388 005:208 JLINK_ReadReg(R9)  returns 0x00000000 (0000ms, 0893ms total)
T1388 005:208 JLINK_ReadReg(R10)  returns 0x00000000 (0000ms, 0893ms total)
T1388 005:208 JLINK_ReadReg(R11)  returns 0x00000000 (0000ms, 0893ms total)
T1388 005:208 JLINK_ReadReg(R12)  returns 0x00000000 (0000ms, 0893ms total)
T1388 005:208 JLINK_ReadReg(R13 (SP))  returns 0x20000000 (0000ms, 0893ms total)
T1388 005:208 JLINK_ReadReg(R14)  returns 0x00012D25 (0000ms, 0893ms total)
T1388 005:208 JLINK_ReadReg(R15 (PC))  returns 0x0000AC72 (0000ms, 0893ms total)
T1388 005:208 JLINK_ReadReg(XPSR)  returns 0x61000000 (0000ms, 0893ms total)
T1388 005:208 JLINK_ReadReg(MSP)  returns 0x20000000 (0000ms, 0893ms total)
T1388 005:208 JLINK_ReadReg(PSP)  returns 0x00000000 (0000ms, 0893ms total)
T1388 005:208 JLINK_ReadReg(CFBP)  returns 0x00000000 (0000ms, 0893ms total)
T1388 005:208 JLINK_ReadReg(FPSCR)  returns 0x00000000 (0007ms, 0900ms total)
T1388 005:215 JLINK_ReadReg(FPS0)  returns 0x00000000 (0000ms, 0900ms total)
T1388 005:215 JLINK_ReadReg(FPS1)  returns 0x00000000 (0000ms, 0900ms total)
T1388 005:215 JLINK_ReadReg(FPS2)  returns 0x00000000 (0000ms, 0900ms total)
T1388 005:216 JLINK_ReadReg(FPS3)  returns 0x00000000 (0000ms, 0901ms total)
T1388 005:216 JLINK_ReadReg(FPS4)  returns 0x00000000 (0000ms, 0901ms total)
T1388 005:216 JLINK_ReadReg(FPS5)  returns 0x00000000 (0000ms, 0901ms total)
T1388 005:216 JLINK_ReadReg(FPS6)  returns 0x00000000 (0000ms, 0901ms total)
T1388 005:216 JLINK_ReadReg(FPS7)  returns 0x00000000 (0000ms, 0901ms total)
T1388 005:216 JLINK_ReadReg(FPS8)  returns 0x00000000 (0000ms, 0901ms total)
T1388 005:216 JLINK_ReadReg(FPS9)  returns 0x00000000 (0000ms, 0901ms total)
T1388 005:216 JLINK_ReadReg(FPS10)  returns 0x00000000 (0000ms, 0901ms total)
T1388 005:216 JLINK_ReadReg(FPS11)  returns 0x00000000 (0000ms, 0901ms total)
T1388 005:216 JLINK_ReadReg(FPS12)  returns 0x00000000 (0000ms, 0901ms total)
T1388 005:216 JLINK_ReadReg(FPS13)  returns 0x00000000 (0000ms, 0901ms total)
T1388 005:216 JLINK_ReadReg(FPS14)  returns 0x00000000 (0000ms, 0901ms total)
T1388 005:216 JLINK_ReadReg(FPS15)  returns 0x00000000 (0000ms, 0901ms total)
T1388 005:216 JLINK_ReadReg(FPS16)  returns 0x00000000 (0000ms, 0901ms total)
T1388 005:216 JLINK_ReadReg(FPS17)  returns 0x00000000 (0000ms, 0901ms total)
T1388 005:216 JLINK_ReadReg(FPS18)  returns 0x00000000 (0000ms, 0901ms total)
T1388 005:216 JLINK_ReadReg(FPS19)  returns 0x00000000 (0000ms, 0901ms total)
T1388 005:216 JLINK_ReadReg(FPS20)  returns 0x00000000 (0000ms, 0901ms total)
T1388 005:216 JLINK_ReadReg(FPS31)  returns 0x00000000 (0000ms, 0901ms total)
T1388 005:216 JLINK_ReadReg(FPS7)  returns 0x00000000 (0000ms, 0901ms total)
T1388 005:216 JLINK_ReadReg(FPS8)  returns 0x00000000 (0000ms, 0901ms total)
T1388 005:216 JLINK_ReadReg(FPS9)  returns 0x00000000 (0000ms, 0901ms total)
T1388 005:216 JLINK_ReadReg(FPS10)  returns 0x00000000 (0001ms, 0902ms total)
T1388 005:217 JLINK_ReadReg(FPS11)  returns 0x00000000 (0000ms, 0902ms total)
T1388 005:217 JLINK_ReadReg(FPS12)  returns 0x00000000 (0000ms, 0902ms total)
T1388 005:217 JLINK_ReadReg(FPS13)  returns 0x00000000 (0000ms, 0902ms total)
T1388 005:217 JLINK_ReadReg(FPS14)  returns 0x00000000 (0000ms, 0902ms total)
T1388 005:217 JLINK_ReadReg(FPS15)  returns 0x00000000 (0000ms, 0902ms total)
T1388 005:217 JLINK_ReadReg(FPS16)  returns 0x00000000 (0000ms, 0902ms total)
T0E08 005:218 JLINK_ReadMem (0x1FFFFFFC, 0x0004 Bytes, ...) -- CPU_ReadMem(64 bytes @ 0x1FFFFFC0) -- Updating C cache (64 bytes @ 0x1FFFFFC0) -- Read from C cache (4 bytes @ 0x1FFFFFFC) - Data: 1B 2D 01 00  returns 0x00 (0001ms, 0903ms total)
T0E08 005:219 JLINK_ReadMem (0x1FFFFFF8, 0x0002 Bytes, ...) -- Read from C cache (2 bytes @ 0x1FFFFFF8) - Data: F0 33  returns 0x00 (0001ms, 0904ms total)
T0E08 005:220 JLINK_ReadMem (0x00000000, 0x0001 Bytes, ...) -- CPU_ReadMem(64 bytes @ 0x00000000) -- Updating C cache (64 bytes @ 0x00000000) -- Read from C cache (1 bytes @ 0x00000000) - Data: 00  returns 0x00 (0001ms, 0905ms total)
T0E08 005:222 JLINK_ReadMemU32(0xE0001004, 0x0001 Items, ...) -- CPU_ReadMem(4 bytes @ 0xE0001004) - Data: 22 BB 01 00  returns 0x01 (0001ms, 0906ms total)
T0E08 005:229 JLINK_ReadMem (0x400FF040, 0x0004 Bytes, ...) -- CPU_ReadMem(4 bytes @ 0x400FF040) - Data: 00 00 00 00  returns 0x00 (0001ms, 0907ms total)
T0E08 005:230 JLINK_ReadMem (0x400FF050, 0x0004 Bytes, ...) -- CPU_ReadMem(4 bytes @ 0x400FF050) - Data: 00 00 00 00  returns 0x00 (0001ms, 0908ms total)
T0E08 005:231 JLINK_ReadMem (0x400FF054, 0x0004 Bytes, ...) -- CPU_ReadMem(4 bytes @ 0x400FF054) - Data: 00 00 00 00  returns 0x00 (0001ms, 0909ms total)
T0E08 005:233 JLINK_ReadMem (0x4004A000, 0x007C Bytes, ...) -- CPU_ReadMem(124 bytes @ 0x4004A000) - Data: AA AA AA AA AA AA AA AA AA AA AA AA AA AA AA AA ...  returns 0x01 (0005ms, 0914ms total)
T0E08 005:238 JLINK_ReadMem (0x4004A07C, 0x0004 Bytes, ...) -- CPU_ReadMem(4 bytes @ 0x4004A07C) - Data: AA AA AA AA  returns 0x01 (0002ms, 0916ms total)
T0E08 005:240 JLINK_ReadMem (0x4004A0A0, 0x0004 Bytes, ...) -- CPU_ReadMem(4 bytes @ 0x4004A0A0) - Data: AA AA AA AA  returns 0x01 (0002ms, 0918ms total)
T0E08 005:243 JLINK_ReadMem (0x4004D000, 0x007C Bytes, ...) -- CPU_ReadMem(124 bytes @ 0x4004D000) - Data: AA AA AA AA AA AA AA AA AA AA AA AA AA AA AA AA ...  returns 0x01 (0005ms, 0923ms total)
T0E08 005:248 JLINK_ReadMem (0x4004D07C, 0x0004 Bytes, ...) -- CPU_ReadMem(4 bytes @ 0x4004D07C) - Data: AA AA AA AA  returns 0x01 (0002ms, 0925ms total)
T0E08 005:250 JLINK_ReadMem (0x4004D0A0, 0x0004 Bytes, ...) -- CPU_ReadMem(4 bytes @ 0x4004D0A0) - Data: AA AA AA AA  returns 0x01 (0002ms, 0927ms total)
T0E08 005:253 JLINK_ReadMem (0x4006A000, 0x0001 Bytes, ...) -- CPU_ReadMem(1 bytes @ 0x4006A000) - Data: AA  returns 0x01 (0002ms, 0929ms total)
T0E08 005:255 JLINK_ReadMem (0x4006A001, 0x0001 Bytes, ...) -- CPU_ReadMem(1 bytes @ 0x4006A001) - Data: AA  returns 0x01 (0002ms, 0931ms total)
T0E08 005:257 JLINK_ReadMem (0x4006A002, 0x0001 Bytes, ...) -- CPU_ReadMem(1 bytes @ 0x4006A002) - Data: AA  returns 0x01 (0002ms, 0933ms total)
T0E08 005:259 JLINK_ReadMem (0x4006A003, 0x0001 Bytes, ...) -- CPU_ReadMem(1 bytes @ 0x4006A003) - Data: AA  returns 0x01 (0002ms, 0935ms total)
T0E08 005:261 JLINK_ReadMem (0x4006A004, 0x0001 Bytes, ...) -- CPU_ReadMem(1 bytes @ 0x4006A004) - Data: AA  returns 0x01 (0002ms, 0937ms total)
T0E08 005:263 JLINK_ReadMem (0x4006A005, 0x0001 Bytes, ...) -- CPU_ReadMem(1 bytes @ 0x4006A005) - Data: AA  returns 0x01 (0002ms, 0939ms total)
T0E08 005:265 JLINK_ReadMem (0x4006A006, 0x0001 Bytes, ...) -- CPU_ReadMem(1 bytes @ 0x4006A006) - Data: AA  returns 0x01 (0002ms, 0941ms total)
T0E08 005:267 JLINK_ReadMem (0x4006A007, 0x0001 Bytes, ...) -- CPU_ReadMem(1 bytes @ 0x4006A007) - Data: AA  returns 0x01 (0002ms, 0943ms total)
T0E08 005:269 JLINK_ReadMem (0x4006A008, 0x0001 Bytes, ...) -- CPU_ReadMem(1 bytes @ 0x4006A008) - Data: AA  returns 0x01 (0002ms, 0945ms total)
T0E08 005:271 JLINK_ReadMem (0x4006A009, 0x0001 Bytes, ...) -- CPU_ReadMem(1 bytes @ 0x4006A009) - Data: AA  returns 0x01 (0002ms, 0947ms total)
T0E08 005:273 JLINK_ReadMem (0x4006A00A, 0x0001 Bytes, ...) -- CPU_ReadMem(1 bytes @ 0x4006A00A) - Data: AA  returns 0x01 (0002ms, 0949ms total)
T0E08 005:275 JLINK_ReadMem (0x4006A00B, 0x0001 Bytes, ...) -- CPU_ReadMem(1 bytes @ 0x4006A00B) - Data: AA  returns 0x01 (0002ms, 0951ms total)
T0E08 005:277 JLINK_ReadMem (0x4006A00C, 0x0001 Bytes, ...) -- CPU_ReadMem(1 bytes @ 0x4006A00C) - Data: AA  returns 0x01 (0002ms, 0953ms total)
T0E08 005:279 JLINK_ReadMem (0x4006A00D, 0x0001 Bytes, ...) -- CPU_ReadMem(1 bytes @ 0x4006A00D) - Data: AA  returns 0x01 (0002ms, 0955ms total)
T0E08 005:281 JLINK_ReadMem (0x4006A00E, 0x0001 Bytes, ...) -- CPU_ReadMem(1 bytes @ 0x4006A00E) - Data: AA  returns 0x01 (0002ms, 0957ms total)
T0E08 005:283 JLINK_ReadMem (0x4006A010, 0x0001 Bytes, ...) -- CPU_ReadMem(1 bytes @ 0x4006A010) - Data: AA  returns 0x01 (0002ms, 0959ms total)
T0E08 005:285 JLINK_ReadMem (0x4006A011, 0x0001 Bytes, ...) -- CPU_ReadMem(1 bytes @ 0x4006A011) - Data: AA  returns 0x01 (0002ms, 0961ms total)
T0E08 005:287 JLINK_ReadMem (0x4006A012, 0x0001 Bytes, ...) -- CPU_ReadMem(1 bytes @ 0x4006A012) - Data: AA  returns 0x01 (0002ms, 0963ms total)
T0E08 005:289 JLINK_ReadMem (0x4006A013, 0x0001 Bytes, ...) -- CPU_ReadMem(1 bytes @ 0x4006A013) - Data: AA  returns 0x01 (0002ms, 0965ms total)
T0E08 005:291 JLINK_ReadMem (0x4006A014, 0x0001 Bytes, ...) -- CPU_ReadMem(1 bytes @ 0x4006A014) - Data: AA  returns 0x01 (0002ms, 0967ms total)
T0E08 005:293 JLINK_ReadMem (0x4006A015, 0x0001 Bytes, ...) -- CPU_ReadMem(1 bytes @ 0x4006A015) - Data: AA  returns 0x01 (0002ms, 0969ms total)
T0E08 005:295 JLINK_ReadMem (0x4006A016, 0x0001 Bytes, ...) -- CPU_ReadMem(1 bytes @ 0x4006A016) - Data: AA  returns 0x01 (0002ms, 0971ms total)
T0E08 005:297 JLINK_ReadMem (0x4006A018, 0x0001 Bytes, ...) -- CPU_ReadMem(1 bytes @ 0x4006A018) - Data: AA  returns 0x01 (0002ms, 0973ms total)
T0E08 005:299 JLINK_ReadMem (0x4006A019, 0x0001 Bytes, ...) -- CPU_ReadMem(1 bytes @ 0x4006A019) - Data: AA  returns 0x01 (0002ms, 0975ms total)
T0E08 005:301 JLINK_ReadMem (0x4006A01A, 0x0001 Bytes, ...) -- CPU_ReadMem(1 bytes @ 0x4006A01A) - Data: AA  returns 0x01 (0002ms, 0977ms total)
T0E08 005:303 JLINK_ReadMem (0x4006A01B, 0x0001 Bytes, ...) -- CPU_ReadMem(1 bytes @ 0x4006A01B) - Data: AA  returns 0x01 (0002ms, 0979ms total)
T0E08 005:305 JLINK_ReadMem (0x4006A01C, 0x0001 Bytes, ...) -- CPU_ReadMem(1 bytes @ 0x4006A01C) - Data: AA  returns 0x01 (0002ms, 0981ms total)
T0E08 005:307 JLINK_ReadMem (0x4006A01D, 0x0001 Bytes, ...) -- CPU_ReadMem(1 bytes @ 0x4006A01D) - Data: AA  returns 0x01 (0002ms, 0983ms total)
T0E08 005:309 JLINK_ReadMem (0x4006A01E, 0x0001 Bytes, ...) -- CPU_ReadMem(1 bytes @ 0x4006A01E) - Data: AA  returns 0x01 (0002ms, 0985ms total)
T0E08 005:311 JLINK_ReadMem (0x4006A01F, 0x0001 Bytes, ...) -- CPU_ReadMem(1 bytes @ 0x4006A01F) - Data: AA  returns 0x01 (0002ms, 0987ms total)
T0E08 005:317 JLINK_ReadMem (0x0000AC70, 0x003C Bytes, ...) -- CPU_ReadMem(128 bytes @ 0x0000AC40) -- Updating C cache (128 bytes @ 0x0000AC40) -- Read from C cache (60 bytes @ 0x0000AC70) - Data: 10 BD A6 B0 41 A0 00 68 25 90 00 BF FF F7 E5 FF ...  returns 0x00 (0002ms, 0989ms total)
T0E08 005:346 JLINK_ReadMem (0x0000A852, 0x0002 Bytes, ...) -- CPU_ReadMem(64 bytes @ 0x0000A840) -- Updating C cache (64 bytes @ 0x0000A840) -- Read from C cache (2 bytes @ 0x0000A852) - Data: 4F F4  returns 0x00 (0002ms, 0991ms total)
T0E08 005:348 JLINK_ReadMem (0x0000A854, 0x003C Bytes, ...) -- CPU_ReadMem(64 bytes @ 0x0000A880) -- Updating C cache (64 bytes @ 0x0000A880) -- Read from C cache (60 bytes @ 0x0000A854) - Data: 8B 70 05 F0 7A F8 30 46 BD E8 F0 81 70 B5 04 46 ...  returns 0x00 (0002ms, 0993ms total)
T0E08 005:421 JLINK_ReadMem (0x1FFFFFBC, 0x0004 Bytes, ...) -- CPU_ReadMem(64 bytes @ 0x1FFFFF80) -- Updating C cache (64 bytes @ 0x1FFFFF80) -- Read from C cache (4 bytes @ 0x1FFFFFBC) - Data: FF FF FF 00  returns 0x00 (0002ms, 0995ms total)
T1388 006:907 JLINK_SetBPEx(Addr = 0x0000A852, Type = 0xFFFFFFF2)  returns 0x00000003 (0001ms, 0996ms total)
T1388 006:908 JLINK_Go() -- CPU_WriteMem(4 bytes @ 0xE0002000) -- CPU_WriteMem(4 bytes @ 0xE0002008) -- CPU_WriteMem(4 bytes @ 0xE000200C) (0005ms, 1001ms total)
T1388 007:013 JLINK_IsHalted()  returns FALSE (0000ms, 1001ms total)
T1388 007:113 JLINK_IsHalted()  returns FALSE (0001ms, 1002ms total)
T1388 007:214 JLINK_IsHalted()  returns FALSE (0001ms, 1002ms total)
T1388 007:315 JLINK_IsHalted()  returns FALSE (0000ms, 1001ms total)
T1388 007:415 JLINK_IsHalted()  returns FALSE (0001ms, 1002ms total)
T1388 007:516 JLINK_IsHalted()  returns FALSE (0001ms, 1002ms total)
T1388 007:617 JLINK_IsHalted()  returns FALSE (0001ms, 1002ms total)
T1388 007:718 JLINK_IsHalted()  returns FALSE (0001ms, 1002ms total)
T1388 007:819 JLINK_IsHalted()  returns FALSE (0001ms, 1002ms total)
T1388 007:920 JLINK_IsHalted()  returns FALSE (0001ms, 1002ms total)
T1388 008:021 JLINK_IsHalted()  returns FALSE (0001ms, 1002ms total)
T1388 008:122 JLINK_IsHalted()  returns FALSE (0001ms, 1002ms total)
T1388 008:223 JLINK_IsHalted()  returns FALSE (0001ms, 1002ms total)
T1388 008:324 JLINK_IsHalted()  returns FALSE (0001ms, 1002ms total)
T1388 008:425 JLINK_IsHalted()  returns FALSE (0001ms, 1002ms total)
T1388 008:526 JLINK_IsHalted()  returns FALSE (0001ms, 1002ms total)
T1388 008:627 JLINK_IsHalted()  returns FALSE (0001ms, 1002ms total)
T1388 008:728 JLINK_IsHalted()  returns FALSE (0001ms, 1002ms total)
T1388 008:829 JLINK_IsHalted()  returns FALSE (0001ms, 1002ms total)
T1388 008:930 JLINK_IsHalted()  returns FALSE (0001ms, 1002ms total)
T1388 009:031 JLINK_IsHalted()  returns FALSE (0001ms, 1002ms total)
T1388 009:132 JLINK_IsHalted()  returns FALSE (0001ms, 1002ms total)
T1388 009:233 JLINK_IsHalted()  returns FALSE (0001ms, 1002ms total)
T1388 009:334 JLINK_IsHalted()  returns FALSE (0001ms, 1002ms total)
T1388 009:435 JLINK_IsHalted()  returns FALSE (0001ms, 1002ms total)
T1388 009:536 JLINK_IsHalted()  returns FALSE (0001ms, 1002ms total)
T1388 009:637 JLINK_IsHalted()  returns FALSE (0001ms, 1002ms total)
T1388 009:738 JLINK_IsHalted()  returns FALSE (0001ms, 1002ms total)
T1388 009:839 JLINK_IsHalted()  returns FALSE (0001ms, 1002ms total)
T1388 009:940 JLINK_IsHalted()  returns FALSE (0001ms, 1002ms total)
T1388 010:041 JLINK_IsHalted()  returns FALSE (0001ms, 1002ms total)
T1388 010:142 JLINK_IsHalted()  returns FALSE (0001ms, 1002ms total)
T1388 010:243 JLINK_IsHalted()  returns FALSE (0001ms, 1002ms total)
T1388 010:344 JLINK_IsHalted()  returns FALSE (0001ms, 1002ms total)
T1388 010:445 JLINK_IsHalted()  returns FALSE (0001ms, 1002ms total)
T1388 010:546 JLINK_IsHalted()  returns FALSE (0001ms, 1002ms total)
T1388 010:647 JLINK_IsHalted()  returns FALSE (0001ms, 1002ms total)
T1388 010:748 JLINK_IsHalted()  returns FALSE (0001ms, 1002ms total)
T1388 010:849 JLINK_IsHalted()  returns FALSE (0001ms, 1002ms total)
T1388 010:950 JLINK_IsHalted()  returns FALSE (0001ms, 1002ms total)
T1388 011:051 JLINK_IsHalted()  returns FALSE (0001ms, 1002ms total)
T1388 011:152 JLINK_IsHalted()  returns FALSE (0001ms, 1002ms total)
T1388 011:253 JLINK_IsHalted()  returns FALSE (0001ms, 1002ms total)
T1388 011:354 JLINK_IsHalted()  returns FALSE (0001ms, 1002ms total)
T1388 011:455 JLINK_IsHalted()  returns FALSE (0001ms, 1002ms total)
T1388 011:556 JLINK_IsHalted()  returns FALSE (0001ms, 1002ms total)
T1388 011:657 JLINK_IsHalted()  returns FALSE (0001ms, 1002ms total)
T1388 011:758 JLINK_IsHalted()  returns FALSE (0001ms, 1002ms total)
T1388 011:859 JLINK_IsHalted()  returns FALSE (0001ms, 1002ms total)
T1388 011:960 JLINK_IsHalted()  returns FALSE (0002ms, 1003ms total)
T1388 012:063 JLINK_IsHalted()  returns FALSE (0001ms, 1002ms total)
T1388 012:164 JLINK_IsHalted()  returns FALSE (0001ms, 1002ms total)
T1388 012:265 JLINK_IsHalted()  returns FALSE (0001ms, 1002ms total)
T1388 012:366 JLINK_IsHalted()  returns FALSE (0001ms, 1002ms total)
T1388 012:467 JLINK_IsHalted()  returns FALSE (0001ms, 1002ms total)
T1388 012:568 JLINK_IsHalted()  returns FALSE (0001ms, 1002ms total)
T1388 012:669 JLINK_IsHalted()  returns FALSE (0001ms, 1002ms total)
T1388 012:770 JLINK_IsHalted()  returns FALSE (0001ms, 1002ms total)
T1388 012:871 JLINK_IsHalted()  returns FALSE (0001ms, 1002ms total)
T1388 012:972 JLINK_IsHalted()  returns TRUE (0006ms, 1007ms total)
T1388 012:978 JLINK_Halt()  returns 0x00 (0000ms, 1001ms total)
T1388 012:978 JLINK_IsHalted()  returns TRUE (0000ms, 1001ms total)
T1388 012:978 JLINK_IsHalted()  returns TRUE (0000ms, 1001ms total)
T1388 012:978 JLINK_IsHalted()  returns TRUE (0000ms, 1001ms total)
T1388 012:978 JLINK_ReadReg(R15 (PC))  returns 0x0000A852 (0000ms, 1001ms total)
T1388 012:978 JLINK_ReadReg(XPSR)  returns 0x41000000 (0000ms, 1001ms total)
T1388 012:978 JLINK_ClrBPEx(BPHandle = 0x00000003)  returns 0x00 (0000ms, 1001ms total)
T1388 012:978 JLINK_ReadMemU32(0xE000ED30, 0x0001 Items, ...) -- CPU_ReadMem(4 bytes @ 0xE000ED30) - Data: 03 00 00 00  returns 0x01 (0002ms, 1003ms total)
T1388 012:980 JLINK_ReadMemU32(0xE0001028, 0x0001 Items, ...) -- CPU_ReadMem(4 bytes @ 0xE0001028) - Data: 00 00 00 00  returns 0x01 (0001ms, 1004ms total)
T1388 012:981 JLINK_ReadMemU32(0xE0001038, 0x0001 Items, ...) -- CPU_ReadMem(4 bytes @ 0xE0001038) - Data: 00 02 00 00  returns 0x01 (0001ms, 1005ms total)
T1388 012:982 JLINK_ReadMemU32(0xE0001048, 0x0001 Items, ...) -- CPU_ReadMem(4 bytes @ 0xE0001048) - Data: 00 00 00 00  returns 0x01 (0001ms, 1006ms total)
T1388 012:983 JLINK_ReadMemU32(0xE0001058, 0x0001 Items, ...) -- CPU_ReadMem(4 bytes @ 0xE0001058) - Data: 00 00 00 00  returns 0x01 (0001ms, 1007ms total)
T1388 012:984 JLINK_ReadReg(R0)  returns 0x00000000 (0000ms, 1007ms total)
T1388 012:984 JLINK_ReadReg(R1)  returns 0x547528C1 (0000ms, 1007ms total)
T1388 012:984 JLINK_ReadReg(R2)  returns 0x000005B4 (0000ms, 1007ms total)
T1388 012:984 JLINK_ReadReg(R3)  returns 0x00001971 (0000ms, 1007ms total)
T1388 012:984 JLINK_ReadReg(R4)  returns 0x2000521C (0000ms, 1007ms total)
T1388 012:984 JLINK_ReadReg(R5)  returns 0x2000521C (0000ms, 1007ms total)
T1388 012:984 JLINK_ReadReg(R6)  returns 0x00000000 (0000ms, 1007ms total)
T1388 012:984 JLINK_ReadReg(R7)  returns 0x200087B8 (0000ms, 1007ms total)
T1388 012:984 JLINK_ReadReg(R8)  returns 0x00001773 (0000ms, 1007ms total)
T1388 012:984 JLINK_ReadReg(R9)  returns 0x00000000 (0001ms, 1008ms total)
T1388 012:985 JLINK_ReadReg(R10)  returns 0x00000000 (0000ms, 1008ms total)
T1388 012:985 JLINK_ReadReg(R11)  returns 0x00000000 (0000ms, 1008ms total)
T1388 012:985 JLINK_ReadReg(R12)  returns 0x0000CCA1 (0000ms, 1008ms total)
T1388 012:985 JLINK_ReadReg(R13 (SP))  returns 0x1FFFFEF0 (0000ms, 1008ms total)
T1388 012:985 JLINK_ReadReg(R14)  returns 0x000048B3 (0000ms, 1008ms total)
T1388 012:985 JLINK_ReadReg(R15 (PC))  returns 0x0000A852 (0000ms, 1008ms total)
T1388 012:985 JLINK_ReadReg(XPSR)  returns 0x41000000 (0000ms, 1008ms total)
T1388 012:985 JLINK_ReadReg(MSP)  returns 0x1FFFFEF0 (0000ms, 1008ms total)
T1388 012:985 JLINK_ReadReg(PSP)  returns 0x00000000 (0000ms, 1008ms total)
T1388 012:985 JLINK_ReadReg(CFBP)  returns 0x00000000 (0000ms, 1008ms total)
T1388 012:985 JLINK_ReadReg(FPSCR)  returns 0x00000000 (0007ms, 1015ms total)
T1388 012:992 JLINK_ReadReg(FPS0)  returns 0x00000000 (0000ms, 1015ms total)
T1388 012:992 JLINK_ReadReg(FPS1)  returns 0x00000000 (0000ms, 1015ms total)
T1388 012:992 JLINK_ReadReg(FPS2)  returns 0x00000000 (0000ms, 1015ms total)
T1388 012:992 JLINK_ReadReg(FPS3)  returns 0x00000000 (0000ms, 1015ms total)
T1388 012:992 JLINK_ReadReg(FPS4)  returns 0x00000000 (0000ms, 1015ms total)
T1388 012:992 JLINK_ReadReg(FPS5)  returns 0x00000000 (0000ms, 1015ms total)
T1388 012:992 JLINK_ReadReg(FPS6)  returns 0x00000000 (0000ms, 1015ms total)
T1388 012:992 JLINK_ReadReg(FPS7)  returns 0x00000000 (0000ms, 1015ms total)
T1388 012:992 JLINK_ReadReg(FPS8)  returns 0x00000000 (0000ms, 1015ms total)
T1388 012:992 JLINK_ReadReg(FPS9)  returns 0x00000000 (0000ms, 1015ms total)
T1388 012:992 JLINK_ReadReg(FPS10)  returns 0x00000000 (0000ms, 1015ms total)
T1388 012:992 JLINK_ReadReg(FPS11)  returns 0x00000000 (0000ms, 1015ms total)
T1388 012:992 JLINK_ReadReg(FPS12)  returns 0x00000000 (0000ms, 1015ms total)
T1388 012:993 JLINK_ReadReg(FPS13)  returns 0x00000000 (0000ms, 1016ms total)
T1388 012:993 JLINK_ReadReg(FPS14)  returns 0x00000000 (0000ms, 1016ms total)
T1388 012:993 JLINK_ReadReg(FPS15)  returns 0x00000000 (0000ms, 1016ms total)
T1388 012:993 JLINK_ReadReg(FPS16)  returns 0x00000000 (0000ms, 1016ms total)
T1388 012:993 JLINK_ReadReg(FPS17)  returns 0x00000000 (0000ms, 1016ms total)
T1388 012:993 JLINK_ReadReg(FPS18)  returns 0x00000000 (0000ms, 1016ms total)
T1388 012:993 JLINK_ReadReg(FPS19)  returns 0x00000000 (0000ms, 1016ms total)
T1388 012:993 JLINK_ReadReg(FPS20)  returns 0x00000000 (0000ms, 1016ms total)
T1388 012:993 JLINK_ReadReg(FPS31)  returns 0x00000000 (0000ms, 1016ms total)
T1388 012:993 JLINK_ReadReg(FPS7)  returns 0x00000000 (0000ms, 1016ms total)
T1388 012:993 JLINK_ReadReg(FPS8)  returns 0x00000000 (0000ms, 1016ms total)
T1388 012:993 JLINK_ReadReg(FPS9)  returns 0x00000000 (0000ms, 1016ms total)
T1388 012:993 JLINK_ReadReg(FPS10)  returns 0x00000000 (0000ms, 1016ms total)
T1388 012:993 JLINK_ReadReg(FPS11)  returns 0x00000000 (0000ms, 1016ms total)
T1388 012:993 JLINK_ReadReg(FPS12)  returns 0x00000000 (0000ms, 1016ms total)
T1388 012:993 JLINK_ReadReg(FPS13)  returns 0x00000000 (0000ms, 1016ms total)
T1388 012:993 JLINK_ReadReg(FPS14)  returns 0x00000000 (0000ms, 1016ms total)
T1388 012:993 JLINK_ReadReg(FPS15)  returns 0x00000000 (0000ms, 1016ms total)
T1388 012:993 JLINK_ReadReg(FPS16)  returns 0x00000000 (0000ms, 1016ms total)
T0E08 012:994 JLINK_ReadMem (0x1FFFFF04, 0x0004 Bytes, ...) -- CPU_ReadMem(64 bytes @ 0x1FFFFF00) -- Updating C cache (64 bytes @ 0x1FFFFF00) -- Read from C cache (4 bytes @ 0x1FFFFF04) - Data: 6D 43 00 00  returns 0x00 (0002ms, 1018ms total)
T0E08 012:997 JLINK_ReadMem (0x1FFFFEF0, 0x0004 Bytes, ...) -- CPU_ReadMem(64 bytes @ 0x1FFFFEC0) -- Updating C cache (64 bytes @ 0x1FFFFEC0) -- Read from C cache (4 bytes @ 0x1FFFFEF0) - Data: 4C 88 00 20  returns 0x00 (0002ms, 1020ms total)
T0E08 012:999 JLINK_ReadMem (0x1FFFFEF4, 0x0004 Bytes, ...) -- Read from C cache (4 bytes @ 0x1FFFFEF4) - Data: B8 87 00 20  returns 0x00 (0000ms, 1020ms total)
T0E08 012:999 JLINK_ReadMem (0x1FFFFEF8, 0x0004 Bytes, ...) -- Read from C cache (4 bytes @ 0x1FFFFEF8) - Data: 00 00 00 00  returns 0x00 (0000ms, 1020ms total)
T0E08 012:999 JLINK_ReadMem (0x1FFFFEFC, 0x0004 Bytes, ...) -- Read from C cache (4 bytes @ 0x1FFFFEFC) - Data: 00 00 00 00  returns 0x00 (0000ms, 1020ms total)
T0E08 012:999 JLINK_ReadMem (0x1FFFFF00, 0x0004 Bytes, ...) -- Read from C cache (4 bytes @ 0x1FFFFF00) - Data: 73 17 00 00  returns 0x00 (0000ms, 1020ms total)
T0E08 012:999 JLINK_ReadMem (0x1FFFFF34, 0x0004 Bytes, ...) -- Read from C cache (4 bytes @ 0x1FFFFF34) - Data: FB 4A 00 00  returns 0x00 (0000ms, 1020ms total)
T0E08 012:999 JLINK_ReadMem (0x1FFFFF14, 0x0004 Bytes, ...) -- Read from C cache (4 bytes @ 0x1FFFFF14) - Data: 00 00 00 00  returns 0x00 (0000ms, 1020ms total)
T0E08 012:999 JLINK_ReadMem (0x1FFFFF18, 0x0004 Bytes, ...) -- Read from C cache (4 bytes @ 0x1FFFFF18) - Data: 3D 7C 00 00  returns 0x00 (0000ms, 1020ms total)
T0E08 012:999 JLINK_ReadMem (0x1FFFFF1C, 0x0004 Bytes, ...) -- Read from C cache (4 bytes @ 0x1FFFFF1C) - Data: 00 00 00 00  returns 0x00 (0001ms, 1021ms total)
T0E08 013:000 JLINK_ReadMem (0x1FFFFF20, 0x0004 Bytes, ...) -- Read from C cache (4 bytes @ 0x1FFFFF20) - Data: 00 00 00 00  returns 0x00 (0000ms, 1021ms total)
T0E08 013:000 JLINK_ReadMem (0x1FFFFF24, 0x0004 Bytes, ...) -- Read from C cache (4 bytes @ 0x1FFFFF24) - Data: 73 17 00 00  returns 0x00 (0000ms, 1021ms total)
T0E08 013:000 JLINK_ReadMem (0x1FFFFF28, 0x0004 Bytes, ...) -- Read from C cache (4 bytes @ 0x1FFFFF28) - Data: 01 00 00 00  returns 0x00 (0000ms, 1021ms total)
T0E08 013:000 JLINK_ReadMem (0x1FFFFF2C, 0x0004 Bytes, ...) -- Read from C cache (4 bytes @ 0x1FFFFF2C) - Data: 00 00 00 00  returns 0x00 (0000ms, 1021ms total)
T0E08 013:000 JLINK_ReadMem (0x1FFFFF30, 0x0004 Bytes, ...) -- Read from C cache (4 bytes @ 0x1FFFFF30) - Data: 00 00 00 00  returns 0x00 (0000ms, 1021ms total)
T0E08 013:000 JLINK_ReadMem (0x1FFFFF3C, 0x0004 Bytes, ...) -- Read from C cache (4 bytes @ 0x1FFFFF3C) - Data: 45 7C 00 00  returns 0x00 (0000ms, 1021ms total)
T0E08 013:001 JLINK_ReadMem (0x1FFFFF38, 0x0004 Bytes, ...) -- Read from C cache (4 bytes @ 0x1FFFFF38) - Data: 00 00 00 00  returns 0x00 (0000ms, 1021ms total)
T0E08 013:001 JLINK_ReadMem (0x1FFFFF44, 0x0004 Bytes, ...) -- CPU_ReadMem(64 bytes @ 0x1FFFFF40) -- Updating C cache (64 bytes @ 0x1FFFFF40) -- Read from C cache (4 bytes @ 0x1FFFFF44) - Data: E3 7D 00 00  returns 0x00 (0002ms, 1023ms total)
T0E08 013:003 JLINK_ReadMem (0x1FFFFF40, 0x0004 Bytes, ...) -- Read from C cache (4 bytes @ 0x1FFFFF40) - Data: D0 8C 00 20  returns 0x00 (0000ms, 1023ms total)
T0E08 013:003 JLINK_ReadMem (0x1FFFFF64, 0x0004 Bytes, ...) -- Read from C cache (4 bytes @ 0x1FFFFF64) - Data: 61 AD 00 00  returns 0x00 (0000ms, 1023ms total)
T0E08 013:003 JLINK_ReadMem (0x1FFFFF48, 0x0004 Bytes, ...) -- Read from C cache (4 bytes @ 0x1FFFFF48) - Data: F0 33 01 00  returns 0x00 (0000ms, 1023ms total)
T0E08 013:003 JLINK_ReadMem (0x1FFFFF4C, 0x0004 Bytes, ...) -- Read from C cache (4 bytes @ 0x1FFFFF4C) - Data: F0 33 01 00  returns 0x00 (0000ms, 1023ms total)
T0E08 013:003 JLINK_ReadMem (0x1FFFFF50, 0x0004 Bytes, ...) -- Read from C cache (4 bytes @ 0x1FFFFF50) - Data: 00 00 00 00  returns 0x00 (0000ms, 1023ms total)
T0E08 013:003 JLINK_ReadMem (0x1FFFFF54, 0x0004 Bytes, ...) -- Read from C cache (4 bytes @ 0x1FFFFF54) - Data: 00 00 00 00  returns 0x00 (0000ms, 1023ms total)
T0E08 013:003 JLINK_ReadMem (0x1FFFFF58, 0x0004 Bytes, ...) -- Read from C cache (4 bytes @ 0x1FFFFF58) - Data: 00 00 00 00  returns 0x00 (0000ms, 1023ms total)
T0E08 013:003 JLINK_ReadMem (0x1FFFFF5C, 0x0004 Bytes, ...) -- Read from C cache (4 bytes @ 0x1FFFFF5C) - Data: 00 00 00 00  returns 0x00 (0001ms, 1024ms total)
T0E08 013:004 JLINK_ReadMem (0x1FFFFF60, 0x0004 Bytes, ...) -- Read from C cache (4 bytes @ 0x1FFFFF60) - Data: 00 00 00 00  returns 0x00 (0000ms, 1024ms total)
T0E08 013:005 JLINK_ReadMem (0x1FFFFFFC, 0x0004 Bytes, ...) -- CPU_ReadMem(64 bytes @ 0x1FFFFFC0) -- Updating C cache (64 bytes @ 0x1FFFFFC0) -- Read from C cache (4 bytes @ 0x1FFFFFFC) - Data: 50 41 54 00  returns 0x00 (0002ms, 1026ms total)
T0E08 013:007 JLINK_ReadMem (0x1FFFFFF8, 0x0002 Bytes, ...) -- Read from C cache (2 bytes @ 0x1FFFFFF8) - Data: F0 33  returns 0x00 (0000ms, 1026ms total)
T0E08 013:007 JLINK_ReadMem (0x00000000, 0x0001 Bytes, ...) -- CPU_ReadMem(64 bytes @ 0x00000000) -- Updating C cache (64 bytes @ 0x00000000) -- Read from C cache (1 bytes @ 0x00000000) - Data: 00  returns 0x00 (0002ms, 1028ms total)
T0E08 013:009 JLINK_ReadMemU32(0xE0001004, 0x0001 Items, ...) -- CPU_ReadMem(4 bytes @ 0xE0001004) - Data: A9 D3 F1 2A  returns 0x01 (0001ms, 1029ms total)
T0E08 013:013 JLINK_ReadMem (0x400FF040, 0x0004 Bytes, ...) -- CPU_ReadMem(4 bytes @ 0x400FF040) - Data: 00 00 00 00  returns 0x00 (0001ms, 1030ms total)
T0E08 013:014 JLINK_ReadMem (0x400FF050, 0x0004 Bytes, ...) -- CPU_ReadMem(4 bytes @ 0x400FF050) - Data: 03 00 03 00  returns 0x00 (0001ms, 1031ms total)
T0E08 013:015 JLINK_ReadMem (0x400FF054, 0x0004 Bytes, ...) -- CPU_ReadMem(4 bytes @ 0x400FF054) - Data: 00 00 60 00  returns 0x00 (0001ms, 1032ms total)
T0E08 013:016 JLINK_ReadMem (0x4004A000, 0x007C Bytes, ...) -- CPU_ReadMem(124 bytes @ 0x4004A000) - Data: 23 04 00 00 00 04 00 00 00 00 00 00 00 00 00 00 ...  returns 0x00 (0003ms, 1035ms total)
T0E08 013:019 JLINK_ReadMem (0x4004A07C, 0x0004 Bytes, ...) -- CPU_ReadMem(4 bytes @ 0x4004A07C) - Data: 00 00 00 00  returns 0x00 (0001ms, 1036ms total)
T0E08 013:020 JLINK_ReadMem (0x4004A0A0, 0x0004 Bytes, ...) -- CPU_ReadMem(4 bytes @ 0x4004A0A0) - Data: 00 00 00 00  returns 0x00 (0001ms, 1037ms total)
T0E08 013:026 JLINK_ReadMem (0x4004D000, 0x007C Bytes, ...) -- CPU_ReadMem(124 bytes @ 0x4004D000) - Data: 43 04 00 00 43 04 00 00 43 04 00 00 43 04 00 00 ...  returns 0x00 (0003ms, 1040ms total)
T0E08 013:029 JLINK_ReadMem (0x4004D07C, 0x0004 Bytes, ...) -- CPU_ReadMem(4 bytes @ 0x4004D07C) - Data: 00 00 00 00  returns 0x00 (0001ms, 1041ms total)
T0E08 013:030 JLINK_ReadMem (0x4004D0A0, 0x0004 Bytes, ...) -- CPU_ReadMem(4 bytes @ 0x4004D0A0) - Data: 00 00 00 00  returns 0x00 (0001ms, 1042ms total)
T0E08 013:037 JLINK_ReadMem (0x4006A000, 0x0001 Bytes, ...) -- CPU_ReadMem(1 bytes @ 0x4006A000) - Data: 03  returns 0x00 (0001ms, 1043ms total)
T0E08 013:038 JLINK_ReadMem (0x4006A001, 0x0001 Bytes, ...) -- CPU_ReadMem(1 bytes @ 0x4006A001) - Data: 0D  returns 0x00 (0001ms, 1044ms total)
T0E08 013:039 JLINK_ReadMem (0x4006A002, 0x0001 Bytes, ...) -- CPU_ReadMem(1 bytes @ 0x4006A002) - Data: 00  returns 0x00 (0001ms, 1045ms total)
T0E08 013:040 JLINK_ReadMem (0x4006A003, 0x0001 Bytes, ...) -- CPU_ReadMem(1 bytes @ 0x4006A003) - Data: 0C  returns 0x00 (0001ms, 1046ms total)
T0E08 013:041 JLINK_ReadMem (0x4006A004, 0x0001 Bytes, ...) -- CPU_ReadMem(1 bytes @ 0x4006A004) - Data: C0  returns 0x00 (0001ms, 1047ms total)
T0E08 013:042 JLINK_ReadMem (0x4006A005, 0x0001 Bytes, ...) -- CPU_ReadMem(1 bytes @ 0x4006A005) - Data: 00  returns 0x00 (0001ms, 1048ms total)
T0E08 013:043 JLINK_ReadMem (0x4006A006, 0x0001 Bytes, ...) -- CPU_ReadMem(1 bytes @ 0x4006A006) - Data: 00  returns 0x00 (0001ms, 1049ms total)
T0E08 013:044 JLINK_ReadMem (0x4006A007, 0x0001 Bytes, ...) -- CPU_ReadMem(1 bytes @ 0x4006A007) - Data: 00  returns 0x00 (0001ms, 1050ms total)
T0E08 013:045 JLINK_ReadMem (0x4006A008, 0x0001 Bytes, ...) -- CPU_ReadMem(1 bytes @ 0x4006A008) - Data: 00  returns 0x00 (0001ms, 1051ms total)
T0E08 013:046 JLINK_ReadMem (0x4006A009, 0x0001 Bytes, ...) -- CPU_ReadMem(1 bytes @ 0x4006A009) - Data: 00  returns 0x00 (0001ms, 1052ms total)
T0E08 013:047 JLINK_ReadMem (0x4006A00A, 0x0001 Bytes, ...) -- CPU_ReadMem(1 bytes @ 0x4006A00A) - Data: 08  returns 0x00 (0001ms, 1053ms total)
T0E08 013:048 JLINK_ReadMem (0x4006A00B, 0x0001 Bytes, ...) -- CPU_ReadMem(1 bytes @ 0x4006A00B) - Data: 00  returns 0x00 (0001ms, 1054ms total)
T0E08 013:049 JLINK_ReadMem (0x4006A00C, 0x0001 Bytes, ...) -- CPU_ReadMem(1 bytes @ 0x4006A00C) - Data: 00  returns 0x00 (0001ms, 1055ms total)
T0E08 013:050 JLINK_ReadMem (0x4006A00D, 0x0001 Bytes, ...) -- CPU_ReadMem(1 bytes @ 0x4006A00D) - Data: 00  returns 0x00 (0001ms, 1056ms total)
T0E08 013:051 JLINK_ReadMem (0x4006A00E, 0x0001 Bytes, ...) -- CPU_ReadMem(1 bytes @ 0x4006A00E) - Data: 00  returns 0x00 (0001ms, 1057ms total)
T0E08 013:052 JLINK_ReadMem (0x4006A010, 0x0001 Bytes, ...) -- CPU_ReadMem(1 bytes @ 0x4006A010) - Data: AA  returns 0x00 (0001ms, 1058ms total)
T0E08 013:053 JLINK_ReadMem (0x4006A011, 0x0001 Bytes, ...) -- CPU_ReadMem(1 bytes @ 0x4006A011) - Data: 00  returns 0x00 (0001ms, 1059ms total)
T0E08 013:054 JLINK_ReadMem (0x4006A012, 0x0001 Bytes, ...) -- CPU_ReadMem(1 bytes @ 0x4006A012) - Data: C1  returns 0x00 (0001ms, 1060ms total)
T0E08 013:055 JLINK_ReadMem (0x4006A013, 0x0001 Bytes, ...) -- CPU_ReadMem(1 bytes @ 0x4006A013) - Data: 04  returns 0x00 (0001ms, 1061ms total)
T0E08 013:056 JLINK_ReadMem (0x4006A014, 0x0001 Bytes, ...) -- CPU_ReadMem(1 bytes @ 0x4006A014) - Data: 00  returns 0x00 (0001ms, 1062ms total)
T0E08 013:057 JLINK_ReadMem (0x4006A015, 0x0001 Bytes, ...) -- CPU_ReadMem(1 bytes @ 0x4006A015) - Data: 01  returns 0x00 (0001ms, 1063ms total)
T0E08 013:058 JLINK_ReadMem (0x4006A016, 0x0001 Bytes, ...) -- CPU_ReadMem(1 bytes @ 0x4006A016) - Data: 00  returns 0x00 (0001ms, 1064ms total)
T0E08 013:059 JLINK_ReadMem (0x4006A018, 0x0001 Bytes, ...) -- CPU_ReadMem(1 bytes @ 0x4006A018) - Data: 00  returns 0x00 (0001ms, 1065ms total)
T0E08 013:060 JLINK_ReadMem (0x4006A019, 0x0001 Bytes, ...) -- CPU_ReadMem(1 bytes @ 0x4006A019) - Data: 00  returns 0x00 (0001ms, 1066ms total)
T0E08 013:061 JLINK_ReadMem (0x4006A01A, 0x0001 Bytes, ...) -- CPU_ReadMem(1 bytes @ 0x4006A01A) - Data: 00  returns 0x00 (0001ms, 1067ms total)
